
T1A78 000:072 SEGGER J-Link V6.22d Log File (0000ms, 0039ms total)
T1A78 000:072 DLL Compiled: Dec 14 2017 18:32:44 (0000ms, 0039ms total)
T1A78 000:072 Logging started @ 2018-01-05 19:09 (0000ms, 0039ms total)
T1A78 000:072 JLINK_SetWarnOutHandler(...) (0000ms, 0039ms total)
T1A78 000:072 JLINK_OpenEx(...)
Firmware: J-Link OB-SAM3U128-V2-NordicSemi compiled Jul 24 2017 17:30:12
Hardware: V1.00
S/N: 681698481
TELNET listener socket opened on port 19021WEBSRV 
Starting webserver (0010ms, 0049ms total)
T1A78 000:072 WEBSRV Webserver running on local port 19080 (0010ms, 0049ms total)
T1A78 000:072   returns O.K. (0010ms, 0049ms total)
T1A78 000:082 JLINK_SetErrorOutHandler(...) (0000ms, 0049ms total)
T1A78 000:082 JLINK_ExecCommand("ProjectFile = "D:\EmbDes\SW\Projects\2017\InDoorPositioning\SourceCodes\nRF5_SDK_11.0.0_89a8197\examples\ble_central\ble_app_uart_c_test\pca10028\s130\arm4\JLinkSettings.ini"", ...). C:\Program Files (x86)\SEGGER\JLink_V622d\JLinkDevices.xml evaluated successfully.  returns 0x00 (0273ms, 0322ms total)
T1A78 000:357 JLINK_ExecCommand("Device = nRF51422_xxAC", ...). Device "NRF51422_XXAC" selected.  returns 0x00 (0003ms, 0325ms total)
T1A78 000:360 JLINK_ExecCommand("DisableConnectionTimeout", ...).   returns 0x01 (0000ms, 0325ms total)
T1A78 000:360 JLINK_GetHardwareVersion()  returns 0x2710 (0000ms, 0325ms total)
T1A78 000:360 JLINK_GetDLLVersion()  returns 62204 (0000ms, 0325ms total)
T1A78 000:360 JLINK_GetFirmwareString(...) (0000ms, 0325ms total)
T1A78 000:367 JLINK_GetDLLVersion()  returns 62204 (0000ms, 0325ms total)
T1A78 000:367 JLINK_GetCompileDateTime() (0000ms, 0325ms total)
T1A78 000:368 JLINK_GetFirmwareString(...) (0000ms, 0325ms total)
T1A78 000:370 JLINK_GetHardwareVersion()  returns 0x2710 (0000ms, 0325ms total)
T1A78 000:375 JLINK_TIF_Select(JLINKARM_TIF_SWD)  returns 0x00 (0001ms, 0326ms total)
T1A78 000:376 JLINK_SetSpeed(2000) (0001ms, 0327ms total)
T1A78 000:377 JLINK_GetId() >0x10B TIF>Found SW-DP with ID 0x0BB11477 >0x0D TIF> >0x28 TIF> >0x0D TIF> >0x28 TIF> >0x0D TIF> >0x28 TIF> >0x0D TIF> >0x28 TIF> >0x35 TIF> >0x0D TIF> >0x28 TIF>Scanning AP map to find all available APs >0x0D TIF> >0x28 TIF> >0x35 TIF> >0x35 TIF> >0x0D TIF> >0x28 TIF> >0x35 TIF> >0x35 TIF>AP[1]: Stopped AP scan as end of AP map has been reachedAP[0]: AHB-AP (IDR: 0x04770021)Iterating through AP map to find AHB-AP to use >0x42 TIF> >0x28 TIF> >0x0D TIF> >0x28 TIF> >0x35 TIF>
 >0x35 TIF> >0x42 TIF> >0x28 TIF> >0x0D TIF> >0x28 TIF> >0x0D TIF> >0x28 TIF> >0x35 TIF> >0x35 TIF>AP[0]: Core foundAP[0]: AHB-AP ROM base: 0xF0000000 >0x0D TIF> >0x28 TIF> >0x0D TIF> >0x28 TIF> >0x0D TIF> >0x28 TIF> >0x35 TIF> >0x35 TIF>CPUID register: 0x410CC200. Implementer code: 0x41 (ARM)Found Cortex-M0 r0p0, Little endian. -- CPU_ReadMem(4 bytes @ 0xE000EDF0) -- CPU_WriteMem(4 bytes @ 0xE000EDF0) -- CPU_ReadMem(4 bytes @ 0xE0002000)FPUnit: 4 code (BP) slots and 0 literal slots
 -- CPU_ReadMem(4 bytes @ 0xE000EDFC) -- CPU_WriteMem(4 bytes @ 0xE000EDFC) -- CPU_ReadMem(4 bytes @ 0xE0001000) -- CPU_WriteMem(4 bytes @ 0xE0001000)CoreSight components:ROMTbl[0] @ F0000000 -- CPU_ReadMem(16 bytes @ 0xF0000000) -- CPU_ReadMem(16 bytes @ 0xE00FFFF0) -- CPU_ReadMem(16 bytes @ 0xE00FFFE0)ROMTbl[0][0]: E00FF000, CID: B105100D, PID: 000BB471 ROM TableROMTbl[1] @ E00FF000 -- CPU_ReadMem(16 bytes @ 0xE00FF000) -- CPU_ReadMem(16 bytes @ 0xE000EFF0) -- CPU_ReadMem(16 bytes @ 0xE000EFE0)
ROMTbl[1][0]: E000E000, CID: B105E00D, PID: 000BB008 SCS -- CPU_ReadMem(16 bytes @ 0xE0001FF0) -- CPU_ReadMem(16 bytes @ 0xE0001FE0)ROMTbl[1][1]: E0001000, CID: B105E00D, PID: 000BB00A DWT -- CPU_ReadMem(16 bytes @ 0xE0002FF0) -- CPU_ReadMem(16 bytes @ 0xE0002FE0)ROMTbl[1][2]: E0002000, CID: B105E00D, PID: 000BB00B FPB -- CPU_ReadMem(16 bytes @ 0xF0002FF0) -- CPU_ReadMem(16 bytes @ 0xF0002FE0)ROMTbl[0][1]: F0002000, CID: B105900D, PID: 000BB9A3 ??? -- CPU_ReadMem(4 bytes @ 0x10001004) >0x35 TIF>
  returns 0x0BB11477 (0175ms, 0502ms total)
T1A78 000:552 JLINK_GetDeviceFamily()  returns 6 (0000ms, 0502ms total)
T1A78 000:554 JLINK_ReadMem (0xE00FFFF0, 0x0010 Bytes, ...) -- CPU_ReadMem(16 bytes @ 0xE00FFFF0) - Data: 0D 00 00 00 10 00 00 00 05 00 00 00 B1 00 00 00  returns 0x00 (0001ms, 0503ms total)
T1A78 000:555 JLINK_ReadMem (0xE00FFFD0, 0x0020 Bytes, ...) -- CPU_ReadMem(32 bytes @ 0xE00FFFD0) - Data: 04 00 00 00 00 00 00 00 00 00 00 00 00 00 00 00 ...  returns 0x00 (0002ms, 0505ms total)
T1A78 000:557 JLINK_ReadMem (0xE00FF000, 0x0018 Bytes, ...) -- CPU_ReadMem(24 bytes @ 0xE00FF000) - Data: 03 F0 F0 FF 03 20 F0 FF 03 30 F0 FF 00 00 00 00 ...  returns 0x00 (0001ms, 0506ms total)
T1A78 000:558 JLINK_ReadMemU32(0xE000ED00, 0x0001 Items, ...) -- CPU_ReadMem(4 bytes @ 0xE000ED00) - Data: 00 C2 0C 41  returns 0x01 (0000ms, 0506ms total)
T1A78 000:558 JLINK_SetResetType(JLINKARM_CM3_RESET_TYPE_NORMAL)  returns JLINKARM_CM3_RESET_TYPE_NORMAL (0000ms, 0506ms total)
T1A78 000:558 JLINK_Reset() -- CPU is running -- CPU_WriteMem(4 bytes @ 0xE000EDF0) -- CPU is running -- CPU_WriteMem(4 bytes @ 0xE000EDFC)Reset: Halt core after reset via DEMCR.VC_CORERESET. >0x35 TIF>Reset: Reset device via AIRCR.SYSRESETREQ. -- CPU is running -- CPU_WriteMem(4 bytes @ 0xE000ED0C) >0x0D TIF> >0x28 TIF> -- CPU_ReadMem(4 bytes @ 0xE000EDF0) -- CPU_ReadMem(4 bytes @ 0xE000EDF0) -- CPU is running -- CPU_WriteMem(4 bytes @ 0xE000EDF0) -- CPU is running -- CPU_WriteMem(4 bytes @ 0xE000EDFC)
 -- CPU_ReadMem(4 bytes @ 0xE000EDF0) -- CPU_WriteMem(4 bytes @ 0xE0002000) -- CPU_ReadMem(4 bytes @ 0xE000EDFC) -- CPU_ReadMem(4 bytes @ 0xE0001000) -- CPU_WriteMem(4 bytes @ 0xE0001000) (0077ms, 0583ms total)
T1A78 000:635 JLINK_Halt()  returns 0x00 (0000ms, 0583ms total)
T1A78 000:635 JLINK_IsHalted()  returns TRUE (0000ms, 0583ms total)
T1A78 000:635 JLINK_ReadMemU32(0xE000EDF0, 0x0001 Items, ...) -- CPU_ReadMem(4 bytes @ 0xE000EDF0) - Data: 03 00 03 00  returns 0x01 (0001ms, 0584ms total)
T1A78 000:636 JLINK_WriteU32(0xE000EDF0, 0xA05F0003) -- CPU_WriteMem(4 bytes @ 0xE000EDF0)  returns 0x00 (0001ms, 0585ms total)
T1A78 000:637 JLINK_WriteU32(0xE000EDFC, 0x01000000) -- CPU_WriteMem(4 bytes @ 0xE000EDFC)  returns 0x00 (0001ms, 0586ms total)
T1A78 000:644 JLINK_GetHWStatus(...)  returns 0x00 (0001ms, 0587ms total)
T1A78 000:649 JLINK_GetNumBPUnits(Type = 0xFFFFFF00)  returns 0x04 (0000ms, 0587ms total)
T1A78 000:649 JLINK_GetNumBPUnits(Type = 0xF0)  returns 0x2000 (0000ms, 0587ms total)
T1A78 000:649 JLINK_GetNumWPUnits()  returns 0x02 (0000ms, 0587ms total)
T1A78 000:654 JLINK_GetSpeed()  returns 0x3E8 (0000ms, 0587ms total)
T1A78 000:658 JLINK_ReadMemU32(0xE000E004, 0x0001 Items, ...) -- CPU_ReadMem(4 bytes @ 0xE000E004) - Data: 00 00 00 00  returns 0x01 (0001ms, 0588ms total)
T1A78 000:659 JLINK_Halt()  returns 0x00 (0000ms, 0588ms total)
T1A78 000:659 JLINK_IsHalted()  returns TRUE (0000ms, 0588ms total)
T1A78 000:662 JLINK_WriteMem(0x20000000, 0x0478 Bytes, ...) - Data: 00 BE 0A E0 0D 78 2D 06 68 40 08 24 40 00 00 D3 ... -- CPU_WriteMem(1144 bytes @ 0x20000000)  returns 0x478 (0016ms, 0604ms total)
T1A78 000:678 JLINK_WriteReg(R0, 0x00000000)  returns 0x00 (0000ms, 0604ms total)
T1A78 000:678 JLINK_WriteReg(R1, 0x00F42400)  returns 0x00 (0001ms, 0605ms total)
T1A78 000:679 JLINK_WriteReg(R2, 0x00000001)  returns 0x00 (0000ms, 0605ms total)
T1A78 000:679 JLINK_WriteReg(R3, 0x00000000)  returns 0x00 (0000ms, 0605ms total)
T1A78 000:679 JLINK_WriteReg(R4, 0x00000000)  returns 0x00 (0000ms, 0605ms total)
T1A78 000:679 JLINK_WriteReg(R5, 0x00000000)  returns 0x00 (0000ms, 0605ms total)
T1A78 000:679 JLINK_WriteReg(R6, 0x00000000)  returns 0x00 (0000ms, 0605ms total)
T1A78 000:679 JLINK_WriteReg(R7, 0x00000000)  returns 0x00 (0000ms, 0605ms total)
T1A78 000:679 JLINK_WriteReg(R8, 0x00000000)  returns 0x00 (0000ms, 0605ms total)
T1A78 000:679 JLINK_WriteReg(R9, 0x20000474)  returns 0x00 (0000ms, 0605ms total)
T1A78 000:679 JLINK_WriteReg(R10, 0x00000000)  returns 0x00 (0000ms, 0605ms total)
T1A78 000:679 JLINK_WriteReg(R11, 0x00000000)  returns 0x00 (0000ms, 0605ms total)
T1A78 000:679 JLINK_WriteReg(R12, 0x00000000)  returns 0x00 (0000ms, 0605ms total)
T1A78 000:679 JLINK_WriteReg(R13 (SP), 0x20002000)  returns 0x00 (0000ms, 0605ms total)
T1A78 000:679 JLINK_WriteReg(R14, 0x20000001)  returns 0x00 (0000ms, 0605ms total)
T1A78 000:679 JLINK_WriteReg(R15 (PC), 0x20000028)  returns 0x00 (0000ms, 0605ms total)
T1A78 000:679 JLINK_WriteReg(XPSR, 0x01000000)  returns 0x00 (0000ms, 0605ms total)
T1A78 000:679 JLINK_WriteReg(MSP, 0x20002000)  returns 0x00 (0000ms, 0605ms total)
T1A78 000:679 JLINK_WriteReg(PSP, 0x20002000)  returns 0x00 (0000ms, 0605ms total)
T1A78 000:679 JLINK_WriteReg(CFBP, 0x00000000)  returns 0x00 (0000ms, 0605ms total)
T1A78 000:679 JLINK_SetBPEx(Addr = 0x20000000, Type = 0xFFFFFFF2) -- CPU_ReadMem(2 bytes @ 0x20000000)  returns 0x00000001 (0001ms, 0606ms total)
T1A78 000:680 JLINK_Go() -- CPU_WriteMem(2 bytes @ 0x20000000) -- CPU_ReadMem(4 bytes @ 0xE0001000) -- CPU_WriteMem(4 bytes @ 0xE0001000) -- CPU_WriteMem(4 bytes @ 0xE0002008) -- CPU_WriteMem(4 bytes @ 0xE000200C) -- CPU_WriteMem(4 bytes @ 0xE0002010) -- CPU_WriteMem(4 bytes @ 0xE0002014) -- CPU_WriteMem(4 bytes @ 0xE0001004) (0011ms, 0617ms total)
T1A78 000:691 JLINK_IsHalted() -- CPU_ReadMem(2 bytes @ 0x20000000)  returns TRUE (0008ms, 0625ms total)
T1A78 000:699 JLINK_ReadReg(R15 (PC))  returns 0x20000000 (0000ms, 0617ms total)
T1A78 000:699 JLINK_ClrBPEx(BPHandle = 0x00000001)  returns 0x00 (0000ms, 0617ms total)
T1A78 000:699 JLINK_ReadReg(R0)  returns 0x00000000 (0000ms, 0617ms total)
T1A78 000:699 JLINK_WriteReg(R0, 0x0001B000)  returns 0x00 (0000ms, 0617ms total)
T1A78 000:699 JLINK_WriteReg(R1, 0x00000400)  returns 0x00 (0000ms, 0617ms total)
T1A78 000:699 JLINK_WriteReg(R2, 0x000000FF)  returns 0x00 (0000ms, 0617ms total)
T1A78 000:699 JLINK_WriteReg(R3, 0x00000000)  returns 0x00 (0000ms, 0617ms total)
T1A78 000:699 JLINK_WriteReg(R4, 0x00000000)  returns 0x00 (0000ms, 0617ms total)
T1A78 000:699 JLINK_WriteReg(R5, 0x00000000)  returns 0x00 (0000ms, 0617ms total)
T1A78 000:699 JLINK_WriteReg(R6, 0x00000000)  returns 0x00 (0000ms, 0617ms total)
T1A78 000:699 JLINK_WriteReg(R7, 0x00000000)  returns 0x00 (0000ms, 0617ms total)
T1A78 000:699 JLINK_WriteReg(R8, 0x00000000)  returns 0x00 (0000ms, 0617ms total)
T1A78 000:700 JLINK_WriteReg(R9, 0x20000474)  returns 0x00 (0000ms, 0618ms total)
T1A78 000:700 JLINK_WriteReg(R10, 0x00000000)  returns 0x00 (0000ms, 0618ms total)
T1A78 000:700 JLINK_WriteReg(R11, 0x00000000)  returns 0x00 (0000ms, 0618ms total)
T1A78 000:700 JLINK_WriteReg(R12, 0x00000000)  returns 0x00 (0000ms, 0618ms total)
T1A78 000:700 JLINK_WriteReg(R13 (SP), 0x20002000)  returns 0x00 (0000ms, 0618ms total)
T1A78 000:700 JLINK_WriteReg(R14, 0x20000001)  returns 0x00 (0000ms, 0618ms total)
T1A78 000:700 JLINK_WriteReg(R15 (PC), 0x20000188)  returns 0x00 (0000ms, 0618ms total)
T1A78 000:700 JLINK_WriteReg(XPSR, 0x01000000)  returns 0x00 (0000ms, 0618ms total)
T1A78 000:700 JLINK_WriteReg(MSP, 0x20002000)  returns 0x00 (0000ms, 0618ms total)
T1A78 000:700 JLINK_WriteReg(PSP, 0x20002000)  returns 0x00 (0000ms, 0618ms total)
T1A78 000:700 JLINK_WriteReg(CFBP, 0x00000000)  returns 0x00 (0000ms, 0618ms total)
T1A78 000:700 JLINK_SetBPEx(Addr = 0x20000000, Type = 0xFFFFFFF2)  returns 0x00000002 (0000ms, 0618ms total)
T1A78 000:700 JLINK_Go() -- CPU_ReadMem(4 bytes @ 0xE0001000) -- CPU_WriteMem(4 bytes @ 0xE0001000) (0005ms, 0623ms total)
T1A78 000:705 JLINK_IsHalted() -- CPU_ReadMem(2 bytes @ 0x20000000)  returns TRUE (0007ms, 0630ms total)
T1A78 000:712 JLINK_ReadReg(R15 (PC))  returns 0x20000000 (0000ms, 0623ms total)
T1A78 000:712 JLINK_ClrBPEx(BPHandle = 0x00000002)  returns 0x00 (0000ms, 0623ms total)
T1A78 000:713 JLINK_ReadReg(R0)  returns 0x00000001 (0000ms, 0623ms total)
T1A78 000:713 JLINK_WriteReg(R0, 0x0001B000)  returns 0x00 (0000ms, 0623ms total)
T1A78 000:713 JLINK_WriteReg(R1, 0x00000400)  returns 0x00 (0000ms, 0623ms total)
T1A78 000:713 JLINK_WriteReg(R2, 0x000000FF)  returns 0x00 (0000ms, 0623ms total)
T1A78 000:713 JLINK_WriteReg(R3, 0x00000000)  returns 0x00 (0000ms, 0623ms total)
T1A78 000:713 JLINK_WriteReg(R4, 0x00000000)  returns 0x00 (0000ms, 0623ms total)
T1A78 000:713 JLINK_WriteReg(R5, 0x00000000)  returns 0x00 (0000ms, 0623ms total)
T1A78 000:713 JLINK_WriteReg(R6, 0x00000000)  returns 0x00 (0000ms, 0623ms total)
T1A78 000:713 JLINK_WriteReg(R7, 0x00000000)  returns 0x00 (0000ms, 0623ms total)
T1A78 000:713 JLINK_WriteReg(R8, 0x00000000)  returns 0x00 (0000ms, 0623ms total)
T1A78 000:713 JLINK_WriteReg(R9, 0x20000474)  returns 0x00 (0000ms, 0623ms total)
T1A78 000:713 JLINK_WriteReg(R10, 0x00000000)  returns 0x00 (0000ms, 0623ms total)
T1A78 000:713 JLINK_WriteReg(R11, 0x00000000)  returns 0x00 (0000ms, 0623ms total)
T1A78 000:713 JLINK_WriteReg(R12, 0x00000000)  returns 0x00 (0000ms, 0623ms total)
T1A78 000:713 JLINK_WriteReg(R13 (SP), 0x20002000)  returns 0x00 (0000ms, 0623ms total)
T1A78 000:713 JLINK_WriteReg(R14, 0x20000001)  returns 0x00 (0000ms, 0623ms total)
T1A78 000:713 JLINK_WriteReg(R15 (PC), 0x20000104)  returns 0x00 (0000ms, 0623ms total)
T1A78 000:713 JLINK_WriteReg(XPSR, 0x01000000)  returns 0x00 (0000ms, 0623ms total)
T1A78 000:713 JLINK_WriteReg(MSP, 0x20002000)  returns 0x00 (0000ms, 0623ms total)
T1A78 000:713 JLINK_WriteReg(PSP, 0x20002000)  returns 0x00 (0000ms, 0623ms total)
T1A78 000:713 JLINK_WriteReg(CFBP, 0x00000000)  returns 0x00 (0000ms, 0623ms total)
T1A78 000:713 JLINK_SetBPEx(Addr = 0x20000000, Type = 0xFFFFFFF2)  returns 0x00000003 (0000ms, 0623ms total)
T1A78 000:713 JLINK_Go() -- CPU_ReadMem(4 bytes @ 0xE0001000) -- CPU_WriteMem(4 bytes @ 0xE0001000) (0004ms, 0627ms total)
T1A78 000:717 JLINK_IsHalted()  returns FALSE (0001ms, 0628ms total)
T1A78 000:756 JLINK_IsHalted() -- CPU_ReadMem(2 bytes @ 0x20000000)  returns TRUE (0007ms, 0634ms total)
T1A78 000:763 JLINK_ReadReg(R15 (PC))  returns 0x20000000 (0000ms, 0627ms total)
T1A78 000:763 JLINK_ClrBPEx(BPHandle = 0x00000003)  returns 0x00 (0000ms, 0627ms total)
T1A78 000:763 JLINK_ReadReg(R0)  returns 0x00000000 (0000ms, 0627ms total)
T1A78 000:764 JLINK_WriteReg(R0, 0x0001B400)  returns 0x00 (0000ms, 0627ms total)
T1A78 000:764 JLINK_WriteReg(R1, 0x00000400)  returns 0x00 (0000ms, 0627ms total)
T1A78 000:764 JLINK_WriteReg(R2, 0x000000FF)  returns 0x00 (0000ms, 0627ms total)
T1A78 000:764 JLINK_WriteReg(R3, 0x00000000)  returns 0x00 (0000ms, 0627ms total)
T1A78 000:764 JLINK_WriteReg(R4, 0x00000000)  returns 0x00 (0000ms, 0627ms total)
T1A78 000:764 JLINK_WriteReg(R5, 0x00000000)  returns 0x00 (0000ms, 0627ms total)
T1A78 000:764 JLINK_WriteReg(R6, 0x00000000)  returns 0x00 (0000ms, 0627ms total)
T1A78 000:764 JLINK_WriteReg(R7, 0x00000000)  returns 0x00 (0000ms, 0627ms total)
T1A78 000:764 JLINK_WriteReg(R8, 0x00000000)  returns 0x00 (0000ms, 0627ms total)
T1A78 000:764 JLINK_WriteReg(R9, 0x20000474)  returns 0x00 (0000ms, 0627ms total)
T1A78 000:764 JLINK_WriteReg(R10, 0x00000000)  returns 0x00 (0000ms, 0627ms total)
T1A78 000:764 JLINK_WriteReg(R11, 0x00000000)  returns 0x00 (0000ms, 0627ms total)
T1A78 000:764 JLINK_WriteReg(R12, 0x00000000)  returns 0x00 (0000ms, 0627ms total)
T1A78 000:764 JLINK_WriteReg(R13 (SP), 0x20002000)  returns 0x00 (0000ms, 0627ms total)
T1A78 000:764 JLINK_WriteReg(R14, 0x20000001)  returns 0x00 (0000ms, 0627ms total)
T1A78 000:764 JLINK_WriteReg(R15 (PC), 0x20000188)  returns 0x00 (0000ms, 0627ms total)
T1A78 000:764 JLINK_WriteReg(XPSR, 0x01000000)  returns 0x00 (0000ms, 0627ms total)
T1A78 000:764 JLINK_WriteReg(MSP, 0x20002000)  returns 0x00 (0000ms, 0627ms total)
T1A78 000:764 JLINK_WriteReg(PSP, 0x20002000)  returns 0x00 (0000ms, 0627ms total)
T1A78 000:764 JLINK_WriteReg(CFBP, 0x00000000)  returns 0x00 (0000ms, 0627ms total)
T1A78 000:764 JLINK_SetBPEx(Addr = 0x20000000, Type = 0xFFFFFFF2)  returns 0x00000004 (0000ms, 0627ms total)
T1A78 000:764 JLINK_Go() -- CPU_ReadMem(4 bytes @ 0xE0001000) -- CPU_WriteMem(4 bytes @ 0xE0001000) (0006ms, 0633ms total)
T1A78 000:770 JLINK_IsHalted() -- CPU_ReadMem(2 bytes @ 0x20000000)  returns TRUE (0007ms, 0640ms total)
T1A78 000:777 JLINK_ReadReg(R15 (PC))  returns 0x20000000 (0000ms, 0633ms total)
T1A78 000:777 JLINK_ClrBPEx(BPHandle = 0x00000004)  returns 0x00 (0000ms, 0633ms total)
T1A78 000:777 JLINK_ReadReg(R0)  returns 0x00000001 (0000ms, 0633ms total)
T1A78 000:777 JLINK_WriteReg(R0, 0x0001B400)  returns 0x00 (0000ms, 0633ms total)
T1A78 000:777 JLINK_WriteReg(R1, 0x00000400)  returns 0x00 (0000ms, 0633ms total)
T1A78 000:777 JLINK_WriteReg(R2, 0x000000FF)  returns 0x00 (0000ms, 0633ms total)
T1A78 000:777 JLINK_WriteReg(R3, 0x00000000)  returns 0x00 (0000ms, 0633ms total)
T1A78 000:777 JLINK_WriteReg(R4, 0x00000000)  returns 0x00 (0000ms, 0633ms total)
T1A78 000:777 JLINK_WriteReg(R5, 0x00000000)  returns 0x00 (0000ms, 0633ms total)
T1A78 000:777 JLINK_WriteReg(R6, 0x00000000)  returns 0x00 (0000ms, 0633ms total)
T1A78 000:777 JLINK_WriteReg(R7, 0x00000000)  returns 0x00 (0000ms, 0633ms total)
T1A78 000:777 JLINK_WriteReg(R8, 0x00000000)  returns 0x00 (0000ms, 0633ms total)
T1A78 000:777 JLINK_WriteReg(R9, 0x20000474)  returns 0x00 (0000ms, 0633ms total)
T1A78 000:778 JLINK_WriteReg(R10, 0x00000000)  returns 0x00 (0000ms, 0634ms total)
T1A78 000:778 JLINK_WriteReg(R11, 0x00000000)  returns 0x00 (0000ms, 0634ms total)
T1A78 000:778 JLINK_WriteReg(R12, 0x00000000)  returns 0x00 (0000ms, 0634ms total)
T1A78 000:778 JLINK_WriteReg(R13 (SP), 0x20002000)  returns 0x00 (0000ms, 0634ms total)
T1A78 000:778 JLINK_WriteReg(R14, 0x20000001)  returns 0x00 (0000ms, 0634ms total)
T1A78 000:778 JLINK_WriteReg(R15 (PC), 0x20000104)  returns 0x00 (0000ms, 0634ms total)
T1A78 000:778 JLINK_WriteReg(XPSR, 0x01000000)  returns 0x00 (0000ms, 0634ms total)
T1A78 000:778 JLINK_WriteReg(MSP, 0x20002000)  returns 0x00 (0000ms, 0634ms total)
T1A78 000:778 JLINK_WriteReg(PSP, 0x20002000)  returns 0x00 (0000ms, 0634ms total)
T1A78 000:778 JLINK_WriteReg(CFBP, 0x00000000)  returns 0x00 (0000ms, 0634ms total)
T1A78 000:778 JLINK_SetBPEx(Addr = 0x20000000, Type = 0xFFFFFFF2)  returns 0x00000005 (0000ms, 0634ms total)
T1A78 000:778 JLINK_Go() -- CPU_ReadMem(4 bytes @ 0xE0001000) -- CPU_WriteMem(4 bytes @ 0xE0001000) (0004ms, 0638ms total)
T1A78 000:782 JLINK_IsHalted()  returns FALSE (0001ms, 0639ms total)
T1A78 000:787 JLINK_IsHalted()  returns FALSE (0001ms, 0639ms total)
T1A78 000:789 JLINK_IsHalted()  returns FALSE (0001ms, 0639ms total)
T1A78 000:791 JLINK_IsHalted()  returns FALSE (0000ms, 0638ms total)
T1A78 000:792 JLINK_IsHalted()  returns FALSE (0000ms, 0638ms total)
T1A78 000:793 JLINK_IsHalted()  returns FALSE (0000ms, 0638ms total)
T1A78 000:794 JLINK_IsHalted()  returns FALSE (0000ms, 0638ms total)
T1A78 000:795 JLINK_IsHalted()  returns FALSE (0000ms, 0638ms total)
T1A78 000:797 JLINK_IsHalted()  returns FALSE (0000ms, 0638ms total)
T1A78 000:798 JLINK_IsHalted()  returns FALSE (0000ms, 0638ms total)
T1A78 000:799 JLINK_IsHalted()  returns FALSE (0000ms, 0638ms total)
T1A78 000:813 JLINK_IsHalted() -- CPU_ReadMem(2 bytes @ 0x20000000)  returns TRUE (0007ms, 0645ms total)
T1A78 000:820 JLINK_ReadReg(R15 (PC))  returns 0x20000000 (0000ms, 0638ms total)
T1A78 000:820 JLINK_ClrBPEx(BPHandle = 0x00000005)  returns 0x00 (0000ms, 0638ms total)
T1A78 000:820 JLINK_ReadReg(R0)  returns 0x00000000 (0000ms, 0638ms total)
T1A78 000:821 JLINK_WriteReg(R0, 0x0001B800)  returns 0x00 (0000ms, 0638ms total)
T1A78 000:821 JLINK_WriteReg(R1, 0x00000400)  returns 0x00 (0000ms, 0638ms total)
T1A78 000:821 JLINK_WriteReg(R2, 0x000000FF)  returns 0x00 (0000ms, 0638ms total)
T1A78 000:821 JLINK_WriteReg(R3, 0x00000000)  returns 0x00 (0000ms, 0638ms total)
T1A78 000:821 JLINK_WriteReg(R4, 0x00000000)  returns 0x00 (0000ms, 0638ms total)
T1A78 000:821 JLINK_WriteReg(R5, 0x00000000)  returns 0x00 (0000ms, 0638ms total)
T1A78 000:821 JLINK_WriteReg(R6, 0x00000000)  returns 0x00 (0000ms, 0638ms total)
T1A78 000:821 JLINK_WriteReg(R7, 0x00000000)  returns 0x00 (0000ms, 0638ms total)
T1A78 000:821 JLINK_WriteReg(R8, 0x00000000)  returns 0x00 (0000ms, 0638ms total)
T1A78 000:821 JLINK_WriteReg(R9, 0x20000474)  returns 0x00 (0000ms, 0638ms total)
T1A78 000:821 JLINK_WriteReg(R10, 0x00000000)  returns 0x00 (0000ms, 0638ms total)
T1A78 000:821 JLINK_WriteReg(R11, 0x00000000)  returns 0x00 (0000ms, 0638ms total)
T1A78 000:821 JLINK_WriteReg(R12, 0x00000000)  returns 0x00 (0000ms, 0638ms total)
T1A78 000:821 JLINK_WriteReg(R13 (SP), 0x20002000)  returns 0x00 (0000ms, 0638ms total)
T1A78 000:821 JLINK_WriteReg(R14, 0x20000001)  returns 0x00 (0000ms, 0638ms total)
T1A78 000:821 JLINK_WriteReg(R15 (PC), 0x20000188)  returns 0x00 (0000ms, 0638ms total)
T1A78 000:821 JLINK_WriteReg(XPSR, 0x01000000)  returns 0x00 (0000ms, 0638ms total)
T1A78 000:821 JLINK_WriteReg(MSP, 0x20002000)  returns 0x00 (0000ms, 0638ms total)
T1A78 000:821 JLINK_WriteReg(PSP, 0x20002000)  returns 0x00 (0000ms, 0638ms total)
T1A78 000:821 JLINK_WriteReg(CFBP, 0x00000000)  returns 0x00 (0000ms, 0638ms total)
T1A78 000:821 JLINK_SetBPEx(Addr = 0x20000000, Type = 0xFFFFFFF2)  returns 0x00000006 (0001ms, 0639ms total)
T1A78 000:822 JLINK_Go() -- CPU_ReadMem(4 bytes @ 0xE0001000) -- CPU_WriteMem(4 bytes @ 0xE0001000) (0005ms, 0644ms total)
T1A78 000:827 JLINK_IsHalted() -- CPU_ReadMem(2 bytes @ 0x20000000)  returns TRUE (0007ms, 0651ms total)
T1A78 000:834 JLINK_ReadReg(R15 (PC))  returns 0x20000000 (0000ms, 0644ms total)
T1A78 000:834 JLINK_ClrBPEx(BPHandle = 0x00000006)  returns 0x00 (0000ms, 0644ms total)
T1A78 000:834 JLINK_ReadReg(R0)  returns 0x00000001 (0001ms, 0645ms total)
T1A78 000:835 JLINK_WriteReg(R0, 0x0001B800)  returns 0x00 (0000ms, 0645ms total)
T1A78 000:835 JLINK_WriteReg(R1, 0x00000400)  returns 0x00 (0000ms, 0645ms total)
T1A78 000:835 JLINK_WriteReg(R2, 0x000000FF)  returns 0x00 (0000ms, 0645ms total)
T1A78 000:835 JLINK_WriteReg(R3, 0x00000000)  returns 0x00 (0000ms, 0645ms total)
T1A78 000:835 JLINK_WriteReg(R4, 0x00000000)  returns 0x00 (0000ms, 0645ms total)
T1A78 000:835 JLINK_WriteReg(R5, 0x00000000)  returns 0x00 (0000ms, 0645ms total)
T1A78 000:835 JLINK_WriteReg(R6, 0x00000000)  returns 0x00 (0000ms, 0645ms total)
T1A78 000:835 JLINK_WriteReg(R7, 0x00000000)  returns 0x00 (0000ms, 0645ms total)
T1A78 000:835 JLINK_WriteReg(R8, 0x00000000)  returns 0x00 (0000ms, 0645ms total)
T1A78 000:835 JLINK_WriteReg(R9, 0x20000474)  returns 0x00 (0000ms, 0645ms total)
T1A78 000:835 JLINK_WriteReg(R10, 0x00000000)  returns 0x00 (0000ms, 0645ms total)
T1A78 000:835 JLINK_WriteReg(R11, 0x00000000)  returns 0x00 (0000ms, 0645ms total)
T1A78 000:835 JLINK_WriteReg(R12, 0x00000000)  returns 0x00 (0000ms, 0645ms total)
T1A78 000:835 JLINK_WriteReg(R13 (SP), 0x20002000)  returns 0x00 (0000ms, 0645ms total)
T1A78 000:835 JLINK_WriteReg(R14, 0x20000001)  returns 0x00 (0000ms, 0645ms total)
T1A78 000:835 JLINK_WriteReg(R15 (PC), 0x20000104)  returns 0x00 (0000ms, 0645ms total)
T1A78 000:835 JLINK_WriteReg(XPSR, 0x01000000)  returns 0x00 (0000ms, 0645ms total)
T1A78 000:835 JLINK_WriteReg(MSP, 0x20002000)  returns 0x00 (0000ms, 0645ms total)
T1A78 000:835 JLINK_WriteReg(PSP, 0x20002000)  returns 0x00 (0000ms, 0645ms total)
T1A78 000:835 JLINK_WriteReg(CFBP, 0x00000000)  returns 0x00 (0000ms, 0645ms total)
T1A78 000:835 JLINK_SetBPEx(Addr = 0x20000000, Type = 0xFFFFFFF2)  returns 0x00000007 (0000ms, 0645ms total)
T1A78 000:835 JLINK_Go() -- CPU_ReadMem(4 bytes @ 0xE0001000) -- CPU_WriteMem(4 bytes @ 0xE0001000) (0004ms, 0649ms total)
T1A78 000:839 JLINK_IsHalted()  returns FALSE (0001ms, 0650ms total)
T1A78 000:845 JLINK_IsHalted()  returns FALSE (0001ms, 0650ms total)
T1A78 000:847 JLINK_IsHalted()  returns FALSE (0001ms, 0650ms total)
T1A78 000:849 JLINK_IsHalted()  returns FALSE (0001ms, 0650ms total)
T1A78 000:851 JLINK_IsHalted()  returns FALSE (0001ms, 0650ms total)
T1A78 000:853 JLINK_IsHalted()  returns FALSE (0001ms, 0650ms total)
T1A78 000:855 JLINK_IsHalted()  returns FALSE (0001ms, 0650ms total)
T1A78 000:857 JLINK_IsHalted()  returns FALSE (0001ms, 0650ms total)
T1A78 000:859 JLINK_IsHalted()  returns FALSE (0001ms, 0650ms total)
T1A78 000:861 JLINK_IsHalted() -- CPU_ReadMem(2 bytes @ 0x20000000)  returns TRUE (0007ms, 0656ms total)
T1A78 000:868 JLINK_ReadReg(R15 (PC))  returns 0x20000000 (0000ms, 0649ms total)
T1A78 000:868 JLINK_ClrBPEx(BPHandle = 0x00000007)  returns 0x00 (0000ms, 0649ms total)
T1A78 000:868 JLINK_ReadReg(R0)  returns 0x00000000 (0000ms, 0649ms total)
T1A78 000:869 JLINK_WriteReg(R0, 0x0001BC00)  returns 0x00 (0000ms, 0649ms total)
T1A78 000:869 JLINK_WriteReg(R1, 0x00000400)  returns 0x00 (0000ms, 0649ms total)
T1A78 000:869 JLINK_WriteReg(R2, 0x000000FF)  returns 0x00 (0000ms, 0649ms total)
T1A78 000:869 JLINK_WriteReg(R3, 0x00000000)  returns 0x00 (0000ms, 0649ms total)
T1A78 000:869 JLINK_WriteReg(R4, 0x00000000)  returns 0x00 (0000ms, 0649ms total)
T1A78 000:869 JLINK_WriteReg(R5, 0x00000000)  returns 0x00 (0000ms, 0649ms total)
T1A78 000:869 JLINK_WriteReg(R6, 0x00000000)  returns 0x00 (0000ms, 0649ms total)
T1A78 000:869 JLINK_WriteReg(R7, 0x00000000)  returns 0x00 (0000ms, 0649ms total)
T1A78 000:869 JLINK_WriteReg(R8, 0x00000000)  returns 0x00 (0000ms, 0649ms total)
T1A78 000:869 JLINK_WriteReg(R9, 0x20000474)  returns 0x00 (0000ms, 0649ms total)
T1A78 000:869 JLINK_WriteReg(R10, 0x00000000)  returns 0x00 (0000ms, 0649ms total)
T1A78 000:869 JLINK_WriteReg(R11, 0x00000000)  returns 0x00 (0000ms, 0649ms total)
T1A78 000:869 JLINK_WriteReg(R12, 0x00000000)  returns 0x00 (0000ms, 0649ms total)
T1A78 000:869 JLINK_WriteReg(R13 (SP), 0x20002000)  returns 0x00 (0000ms, 0649ms total)
T1A78 000:869 JLINK_WriteReg(R14, 0x20000001)  returns 0x00 (0000ms, 0649ms total)
T1A78 000:869 JLINK_WriteReg(R15 (PC), 0x20000188)  returns 0x00 (0000ms, 0649ms total)
T1A78 000:869 JLINK_WriteReg(XPSR, 0x01000000)  returns 0x00 (0000ms, 0649ms total)
T1A78 000:869 JLINK_WriteReg(MSP, 0x20002000)  returns 0x00 (0000ms, 0649ms total)
T1A78 000:869 JLINK_WriteReg(PSP, 0x20002000)  returns 0x00 (0000ms, 0649ms total)
T1A78 000:869 JLINK_WriteReg(CFBP, 0x00000000)  returns 0x00 (0000ms, 0649ms total)
T1A78 000:869 JLINK_SetBPEx(Addr = 0x20000000, Type = 0xFFFFFFF2)  returns 0x00000008 (0000ms, 0649ms total)
T1A78 000:869 JLINK_Go() -- CPU_ReadMem(4 bytes @ 0xE0001000) -- CPU_WriteMem(4 bytes @ 0xE0001000) (0005ms, 0654ms total)
T1A78 000:875 JLINK_IsHalted() -- CPU_ReadMem(2 bytes @ 0x20000000)  returns TRUE (0007ms, 0661ms total)
T1A78 000:882 JLINK_ReadReg(R15 (PC))  returns 0x20000000 (0000ms, 0654ms total)
T1A78 000:882 JLINK_ClrBPEx(BPHandle = 0x00000008)  returns 0x00 (0000ms, 0654ms total)
T1A78 000:882 JLINK_ReadReg(R0)  returns 0x00000001 (0000ms, 0654ms total)
T1A78 000:882 JLINK_WriteReg(R0, 0x0001BC00)  returns 0x00 (0000ms, 0654ms total)
T1A78 000:882 JLINK_WriteReg(R1, 0x00000400)  returns 0x00 (0000ms, 0654ms total)
T1A78 000:882 JLINK_WriteReg(R2, 0x000000FF)  returns 0x00 (0000ms, 0654ms total)
T1A78 000:882 JLINK_WriteReg(R3, 0x00000000)  returns 0x00 (0000ms, 0654ms total)
T1A78 000:882 JLINK_WriteReg(R4, 0x00000000)  returns 0x00 (0000ms, 0654ms total)
T1A78 000:882 JLINK_WriteReg(R5, 0x00000000)  returns 0x00 (0000ms, 0654ms total)
T1A78 000:882 JLINK_WriteReg(R6, 0x00000000)  returns 0x00 (0000ms, 0654ms total)
T1A78 000:882 JLINK_WriteReg(R7, 0x00000000)  returns 0x00 (0000ms, 0654ms total)
T1A78 000:882 JLINK_WriteReg(R8, 0x00000000)  returns 0x00 (0000ms, 0654ms total)
T1A78 000:882 JLINK_WriteReg(R9, 0x20000474)  returns 0x00 (0000ms, 0654ms total)
T1A78 000:882 JLINK_WriteReg(R10, 0x00000000)  returns 0x00 (0000ms, 0654ms total)
T1A78 000:882 JLINK_WriteReg(R11, 0x00000000)  returns 0x00 (0000ms, 0654ms total)
T1A78 000:882 JLINK_WriteReg(R12, 0x00000000)  returns 0x00 (0000ms, 0654ms total)
T1A78 000:882 JLINK_WriteReg(R13 (SP), 0x20002000)  returns 0x00 (0000ms, 0654ms total)
T1A78 000:882 JLINK_WriteReg(R14, 0x20000001)  returns 0x00 (0000ms, 0654ms total)
T1A78 000:882 JLINK_WriteReg(R15 (PC), 0x20000104)  returns 0x00 (0000ms, 0654ms total)
T1A78 000:882 JLINK_WriteReg(XPSR, 0x01000000)  returns 0x00 (0000ms, 0654ms total)
T1A78 000:882 JLINK_WriteReg(MSP, 0x20002000)  returns 0x00 (0000ms, 0654ms total)
T1A78 000:882 JLINK_WriteReg(PSP, 0x20002000)  returns 0x00 (0000ms, 0654ms total)
T1A78 000:882 JLINK_WriteReg(CFBP, 0x00000000)  returns 0x00 (0000ms, 0654ms total)
T1A78 000:882 JLINK_SetBPEx(Addr = 0x20000000, Type = 0xFFFFFFF2)  returns 0x00000009 (0001ms, 0655ms total)
T1A78 000:883 JLINK_Go() -- CPU_ReadMem(4 bytes @ 0xE0001000) -- CPU_WriteMem(4 bytes @ 0xE0001000) (0004ms, 0659ms total)
T1A78 000:887 JLINK_IsHalted()  returns FALSE (0001ms, 0660ms total)
T1A78 000:890 JLINK_IsHalted()  returns FALSE (0001ms, 0660ms total)
T1A78 000:892 JLINK_IsHalted()  returns FALSE (0001ms, 0660ms total)
T1A78 000:894 JLINK_IsHalted()  returns FALSE (0001ms, 0660ms total)
T1A78 000:896 JLINK_IsHalted()  returns FALSE (0001ms, 0660ms total)
T1A78 000:898 JLINK_IsHalted()  returns FALSE (0001ms, 0660ms total)
T1A78 000:900 JLINK_IsHalted()  returns FALSE (0001ms, 0660ms total)
T1A78 000:902 JLINK_IsHalted()  returns FALSE (0001ms, 0660ms total)
T1A78 000:904 JLINK_IsHalted()  returns FALSE (0001ms, 0660ms total)
T1A78 000:906 JLINK_IsHalted()  returns FALSE (0001ms, 0660ms total)
T1A78 000:908 JLINK_IsHalted() -- CPU_ReadMem(2 bytes @ 0x20000000)  returns TRUE (0007ms, 0666ms total)
T1A78 000:915 JLINK_ReadReg(R15 (PC))  returns 0x20000000 (0000ms, 0659ms total)
T1A78 000:915 JLINK_ClrBPEx(BPHandle = 0x00000009)  returns 0x00 (0000ms, 0659ms total)
T1A78 000:915 JLINK_ReadReg(R0)  returns 0x00000000 (0000ms, 0659ms total)
T1A78 000:916 JLINK_WriteReg(R0, 0x0001C000)  returns 0x00 (0000ms, 0659ms total)
T1A78 000:916 JLINK_WriteReg(R1, 0x00000400)  returns 0x00 (0000ms, 0659ms total)
T1A78 000:916 JLINK_WriteReg(R2, 0x000000FF)  returns 0x00 (0000ms, 0659ms total)
T1A78 000:916 JLINK_WriteReg(R3, 0x00000000)  returns 0x00 (0000ms, 0659ms total)
T1A78 000:916 JLINK_WriteReg(R4, 0x00000000)  returns 0x00 (0000ms, 0659ms total)
T1A78 000:916 JLINK_WriteReg(R5, 0x00000000)  returns 0x00 (0000ms, 0659ms total)
T1A78 000:916 JLINK_WriteReg(R6, 0x00000000)  returns 0x00 (0000ms, 0659ms total)
T1A78 000:916 JLINK_WriteReg(R7, 0x00000000)  returns 0x00 (0000ms, 0659ms total)
T1A78 000:916 JLINK_WriteReg(R8, 0x00000000)  returns 0x00 (0000ms, 0659ms total)
T1A78 000:916 JLINK_WriteReg(R9, 0x20000474)  returns 0x00 (0000ms, 0659ms total)
T1A78 000:916 JLINK_WriteReg(R10, 0x00000000)  returns 0x00 (0000ms, 0659ms total)
T1A78 000:916 JLINK_WriteReg(R11, 0x00000000)  returns 0x00 (0000ms, 0659ms total)
T1A78 000:916 JLINK_WriteReg(R12, 0x00000000)  returns 0x00 (0000ms, 0659ms total)
T1A78 000:916 JLINK_WriteReg(R13 (SP), 0x20002000)  returns 0x00 (0000ms, 0659ms total)
T1A78 000:916 JLINK_WriteReg(R14, 0x20000001)  returns 0x00 (0000ms, 0659ms total)
T1A78 000:916 JLINK_WriteReg(R15 (PC), 0x20000188)  returns 0x00 (0000ms, 0659ms total)
T1A78 000:916 JLINK_WriteReg(XPSR, 0x01000000)  returns 0x00 (0000ms, 0659ms total)
T1A78 000:916 JLINK_WriteReg(MSP, 0x20002000)  returns 0x00 (0000ms, 0659ms total)
T1A78 000:916 JLINK_WriteReg(PSP, 0x20002000)  returns 0x00 (0000ms, 0659ms total)
T1A78 000:916 JLINK_WriteReg(CFBP, 0x00000000)  returns 0x00 (0000ms, 0659ms total)
T1A78 000:916 JLINK_SetBPEx(Addr = 0x20000000, Type = 0xFFFFFFF2)  returns 0x0000000A (0000ms, 0659ms total)
T1A78 000:916 JLINK_Go() -- CPU_ReadMem(4 bytes @ 0xE0001000) -- CPU_WriteMem(4 bytes @ 0xE0001000) (0005ms, 0664ms total)
T1A78 000:921 JLINK_IsHalted() -- CPU_ReadMem(2 bytes @ 0x20000000)  returns TRUE (0008ms, 0672ms total)
T1A78 000:929 JLINK_ReadReg(R15 (PC))  returns 0x20000000 (0000ms, 0664ms total)
T1A78 000:929 JLINK_ClrBPEx(BPHandle = 0x0000000A)  returns 0x00 (0000ms, 0664ms total)
T1A78 000:929 JLINK_ReadReg(R0)  returns 0x00000001 (0000ms, 0664ms total)
T1A78 000:929 JLINK_WriteReg(R0, 0x0001C000)  returns 0x00 (0000ms, 0664ms total)
T1A78 000:929 JLINK_WriteReg(R1, 0x00000400)  returns 0x00 (0000ms, 0664ms total)
T1A78 000:929 JLINK_WriteReg(R2, 0x000000FF)  returns 0x00 (0000ms, 0664ms total)
T1A78 000:929 JLINK_WriteReg(R3, 0x00000000)  returns 0x00 (0000ms, 0664ms total)
T1A78 000:929 JLINK_WriteReg(R4, 0x00000000)  returns 0x00 (0000ms, 0664ms total)
T1A78 000:929 JLINK_WriteReg(R5, 0x00000000)  returns 0x00 (0000ms, 0664ms total)
T1A78 000:929 JLINK_WriteReg(R6, 0x00000000)  returns 0x00 (0000ms, 0664ms total)
T1A78 000:929 JLINK_WriteReg(R7, 0x00000000)  returns 0x00 (0000ms, 0664ms total)
T1A78 000:929 JLINK_WriteReg(R8, 0x00000000)  returns 0x00 (0000ms, 0664ms total)
T1A78 000:929 JLINK_WriteReg(R9, 0x20000474)  returns 0x00 (0000ms, 0664ms total)
T1A78 000:929 JLINK_WriteReg(R10, 0x00000000)  returns 0x00 (0000ms, 0664ms total)
T1A78 000:929 JLINK_WriteReg(R11, 0x00000000)  returns 0x00 (0000ms, 0664ms total)
T1A78 000:929 JLINK_WriteReg(R12, 0x00000000)  returns 0x00 (0000ms, 0664ms total)
T1A78 000:929 JLINK_WriteReg(R13 (SP), 0x20002000)  returns 0x00 (0000ms, 0664ms total)
T1A78 000:929 JLINK_WriteReg(R14, 0x20000001)  returns 0x00 (0000ms, 0664ms total)
T1A78 000:929 JLINK_WriteReg(R15 (PC), 0x20000104)  returns 0x00 (0000ms, 0664ms total)
T1A78 000:929 JLINK_WriteReg(XPSR, 0x01000000)  returns 0x00 (0000ms, 0664ms total)
T1A78 000:929 JLINK_WriteReg(MSP, 0x20002000)  returns 0x00 (0000ms, 0664ms total)
T1A78 000:929 JLINK_WriteReg(PSP, 0x20002000)  returns 0x00 (0000ms, 0664ms total)
T1A78 000:929 JLINK_WriteReg(CFBP, 0x00000000)  returns 0x00 (0000ms, 0664ms total)
T1A78 000:929 JLINK_SetBPEx(Addr = 0x20000000, Type = 0xFFFFFFF2)  returns 0x0000000B (0000ms, 0664ms total)
T1A78 000:929 JLINK_Go() -- CPU_ReadMem(4 bytes @ 0xE0001000) -- CPU_WriteMem(4 bytes @ 0xE0001000) (0005ms, 0669ms total)
T1A78 000:934 JLINK_IsHalted()  returns FALSE (0000ms, 0669ms total)
T1A78 000:947 JLINK_IsHalted()  returns FALSE (0001ms, 0670ms total)
T1A78 000:949 JLINK_IsHalted()  returns FALSE (0001ms, 0670ms total)
T1A78 000:951 JLINK_IsHalted()  returns FALSE (0001ms, 0670ms total)
T1A78 000:953 JLINK_IsHalted()  returns FALSE (0001ms, 0670ms total)
T1A78 000:955 JLINK_IsHalted() -- CPU_ReadMem(2 bytes @ 0x20000000)  returns TRUE (0007ms, 0676ms total)
T1A78 000:962 JLINK_ReadReg(R15 (PC))  returns 0x20000000 (0000ms, 0669ms total)
T1A78 000:962 JLINK_ClrBPEx(BPHandle = 0x0000000B)  returns 0x00 (0000ms, 0669ms total)
T1A78 000:962 JLINK_ReadReg(R0)  returns 0x00000000 (0000ms, 0669ms total)
T1A78 000:963 JLINK_WriteReg(R0, 0x0001C400)  returns 0x00 (0000ms, 0669ms total)
T1A78 000:963 JLINK_WriteReg(R1, 0x00000400)  returns 0x00 (0000ms, 0669ms total)
T1A78 000:963 JLINK_WriteReg(R2, 0x000000FF)  returns 0x00 (0000ms, 0669ms total)
T1A78 000:963 JLINK_WriteReg(R3, 0x00000000)  returns 0x00 (0000ms, 0669ms total)
T1A78 000:963 JLINK_WriteReg(R4, 0x00000000)  returns 0x00 (0000ms, 0669ms total)
T1A78 000:963 JLINK_WriteReg(R5, 0x00000000)  returns 0x00 (0000ms, 0669ms total)
T1A78 000:963 JLINK_WriteReg(R6, 0x00000000)  returns 0x00 (0000ms, 0669ms total)
T1A78 000:963 JLINK_WriteReg(R7, 0x00000000)  returns 0x00 (0000ms, 0669ms total)
T1A78 000:963 JLINK_WriteReg(R8, 0x00000000)  returns 0x00 (0000ms, 0669ms total)
T1A78 000:963 JLINK_WriteReg(R9, 0x20000474)  returns 0x00 (0000ms, 0669ms total)
T1A78 000:963 JLINK_WriteReg(R10, 0x00000000)  returns 0x00 (0000ms, 0669ms total)
T1A78 000:963 JLINK_WriteReg(R11, 0x00000000)  returns 0x00 (0000ms, 0669ms total)
T1A78 000:963 JLINK_WriteReg(R12, 0x00000000)  returns 0x00 (0000ms, 0669ms total)
T1A78 000:963 JLINK_WriteReg(R13 (SP), 0x20002000)  returns 0x00 (0000ms, 0669ms total)
T1A78 000:963 JLINK_WriteReg(R14, 0x20000001)  returns 0x00 (0000ms, 0669ms total)
T1A78 000:963 JLINK_WriteReg(R15 (PC), 0x20000188)  returns 0x00 (0000ms, 0669ms total)
T1A78 000:963 JLINK_WriteReg(XPSR, 0x01000000)  returns 0x00 (0000ms, 0669ms total)
T1A78 000:963 JLINK_WriteReg(MSP, 0x20002000)  returns 0x00 (0000ms, 0669ms total)
T1A78 000:963 JLINK_WriteReg(PSP, 0x20002000)  returns 0x00 (0000ms, 0669ms total)
T1A78 000:963 JLINK_WriteReg(CFBP, 0x00000000)  returns 0x00 (0000ms, 0669ms total)
T1A78 000:963 JLINK_SetBPEx(Addr = 0x20000000, Type = 0xFFFFFFF2)  returns 0x0000000C (0000ms, 0669ms total)
T1A78 000:963 JLINK_Go() -- CPU_ReadMem(4 bytes @ 0xE0001000) -- CPU_WriteMem(4 bytes @ 0xE0001000) (0005ms, 0674ms total)
T1A78 000:968 JLINK_IsHalted() -- CPU_ReadMem(2 bytes @ 0x20000000)  returns TRUE (0008ms, 0682ms total)
T1A78 000:976 JLINK_ReadReg(R15 (PC))  returns 0x20000000 (0000ms, 0674ms total)
T1A78 000:976 JLINK_ClrBPEx(BPHandle = 0x0000000C)  returns 0x00 (0000ms, 0674ms total)
T1A78 000:976 JLINK_ReadReg(R0)  returns 0x00000001 (0000ms, 0674ms total)
T1A78 000:976 JLINK_WriteReg(R0, 0x0001C400)  returns 0x00 (0000ms, 0674ms total)
T1A78 000:976 JLINK_WriteReg(R1, 0x00000400)  returns 0x00 (0000ms, 0674ms total)
T1A78 000:976 JLINK_WriteReg(R2, 0x000000FF)  returns 0x00 (0000ms, 0674ms total)
T1A78 000:976 JLINK_WriteReg(R3, 0x00000000)  returns 0x00 (0000ms, 0674ms total)
T1A78 000:976 JLINK_WriteReg(R4, 0x00000000)  returns 0x00 (0000ms, 0674ms total)
T1A78 000:976 JLINK_WriteReg(R5, 0x00000000)  returns 0x00 (0000ms, 0674ms total)
T1A78 000:976 JLINK_WriteReg(R6, 0x00000000)  returns 0x00 (0000ms, 0674ms total)
T1A78 000:976 JLINK_WriteReg(R7, 0x00000000)  returns 0x00 (0000ms, 0674ms total)
T1A78 000:976 JLINK_WriteReg(R8, 0x00000000)  returns 0x00 (0000ms, 0674ms total)
T1A78 000:976 JLINK_WriteReg(R9, 0x20000474)  returns 0x00 (0000ms, 0674ms total)
T1A78 000:976 JLINK_WriteReg(R10, 0x00000000)  returns 0x00 (0000ms, 0674ms total)
T1A78 000:976 JLINK_WriteReg(R11, 0x00000000)  returns 0x00 (0000ms, 0674ms total)
T1A78 000:976 JLINK_WriteReg(R12, 0x00000000)  returns 0x00 (0000ms, 0674ms total)
T1A78 000:976 JLINK_WriteReg(R13 (SP), 0x20002000)  returns 0x00 (0000ms, 0674ms total)
T1A78 000:976 JLINK_WriteReg(R14, 0x20000001)  returns 0x00 (0000ms, 0674ms total)
T1A78 000:976 JLINK_WriteReg(R15 (PC), 0x20000104)  returns 0x00 (0000ms, 0674ms total)
T1A78 000:976 JLINK_WriteReg(XPSR, 0x01000000)  returns 0x00 (0000ms, 0674ms total)
T1A78 000:976 JLINK_WriteReg(MSP, 0x20002000)  returns 0x00 (0000ms, 0674ms total)
T1A78 000:976 JLINK_WriteReg(PSP, 0x20002000)  returns 0x00 (0000ms, 0674ms total)
T1A78 000:976 JLINK_WriteReg(CFBP, 0x00000000)  returns 0x00 (0000ms, 0674ms total)
T1A78 000:976 JLINK_SetBPEx(Addr = 0x20000000, Type = 0xFFFFFFF2)  returns 0x0000000D (0001ms, 0675ms total)
T1A78 000:977 JLINK_Go() -- CPU_ReadMem(4 bytes @ 0xE0001000) -- CPU_WriteMem(4 bytes @ 0xE0001000) (0004ms, 0679ms total)
T1A78 000:981 JLINK_IsHalted()  returns FALSE (0001ms, 0680ms total)
T1A78 000:983 JLINK_IsHalted()  returns FALSE (0000ms, 0679ms total)
T1A78 000:984 JLINK_IsHalted()  returns FALSE (0000ms, 0679ms total)
T1A78 000:985 JLINK_IsHalted()  returns FALSE (0000ms, 0679ms total)
T1A78 000:986 JLINK_IsHalted()  returns FALSE (0000ms, 0679ms total)
T1A78 000:989 JLINK_IsHalted()  returns FALSE (0000ms, 0679ms total)
T1A78 000:990 JLINK_IsHalted()  returns FALSE (0001ms, 0680ms total)
T1A78 000:992 JLINK_IsHalted()  returns FALSE (0001ms, 0680ms total)
T1A78 000:994 JLINK_IsHalted()  returns FALSE (0001ms, 0680ms total)
T1A78 000:996 JLINK_IsHalted()  returns FALSE (0001ms, 0680ms total)
T1A78 000:998 JLINK_IsHalted()  returns FALSE (0001ms, 0680ms total)
T1A78 001:000 JLINK_IsHalted()  returns FALSE (0001ms, 0680ms total)
T1A78 001:002 JLINK_IsHalted() -- CPU_ReadMem(2 bytes @ 0x20000000)  returns TRUE (0007ms, 0686ms total)
T1A78 001:009 JLINK_ReadReg(R15 (PC))  returns 0x20000000 (0000ms, 0679ms total)
T1A78 001:009 JLINK_ClrBPEx(BPHandle = 0x0000000D)  returns 0x00 (0000ms, 0679ms total)
T1A78 001:010 JLINK_ReadReg(R0)  returns 0x00000000 (0000ms, 0679ms total)
T1A78 001:010 JLINK_WriteReg(R0, 0x0001C800)  returns 0x00 (0000ms, 0679ms total)
T1A78 001:010 JLINK_WriteReg(R1, 0x00000400)  returns 0x00 (0000ms, 0679ms total)
T1A78 001:010 JLINK_WriteReg(R2, 0x000000FF)  returns 0x00 (0000ms, 0679ms total)
T1A78 001:010 JLINK_WriteReg(R3, 0x00000000)  returns 0x00 (0000ms, 0679ms total)
T1A78 001:010 JLINK_WriteReg(R4, 0x00000000)  returns 0x00 (0000ms, 0679ms total)
T1A78 001:010 JLINK_WriteReg(R5, 0x00000000)  returns 0x00 (0000ms, 0679ms total)
T1A78 001:010 JLINK_WriteReg(R6, 0x00000000)  returns 0x00 (0000ms, 0679ms total)
T1A78 001:010 JLINK_WriteReg(R7, 0x00000000)  returns 0x00 (0000ms, 0679ms total)
T1A78 001:010 JLINK_WriteReg(R8, 0x00000000)  returns 0x00 (0000ms, 0679ms total)
T1A78 001:010 JLINK_WriteReg(R9, 0x20000474)  returns 0x00 (0000ms, 0679ms total)
T1A78 001:010 JLINK_WriteReg(R10, 0x00000000)  returns 0x00 (0000ms, 0679ms total)
T1A78 001:010 JLINK_WriteReg(R11, 0x00000000)  returns 0x00 (0000ms, 0679ms total)
T1A78 001:010 JLINK_WriteReg(R12, 0x00000000)  returns 0x00 (0000ms, 0679ms total)
T1A78 001:010 JLINK_WriteReg(R13 (SP), 0x20002000)  returns 0x00 (0000ms, 0679ms total)
T1A78 001:010 JLINK_WriteReg(R14, 0x20000001)  returns 0x00 (0000ms, 0679ms total)
T1A78 001:010 JLINK_WriteReg(R15 (PC), 0x20000188)  returns 0x00 (0000ms, 0679ms total)
T1A78 001:010 JLINK_WriteReg(XPSR, 0x01000000)  returns 0x00 (0000ms, 0679ms total)
T1A78 001:010 JLINK_WriteReg(MSP, 0x20002000)  returns 0x00 (0000ms, 0679ms total)
T1A78 001:010 JLINK_WriteReg(PSP, 0x20002000)  returns 0x00 (0000ms, 0679ms total)
T1A78 001:010 JLINK_WriteReg(CFBP, 0x00000000)  returns 0x00 (0000ms, 0679ms total)
T1A78 001:010 JLINK_SetBPEx(Addr = 0x20000000, Type = 0xFFFFFFF2)  returns 0x0000000E (0000ms, 0679ms total)
T1A78 001:010 JLINK_Go() -- CPU_ReadMem(4 bytes @ 0xE0001000) -- CPU_WriteMem(4 bytes @ 0xE0001000) (0006ms, 0685ms total)
T1A78 001:016 JLINK_IsHalted() -- CPU_ReadMem(2 bytes @ 0x20000000)  returns TRUE (0007ms, 0692ms total)
T1A78 001:023 JLINK_ReadReg(R15 (PC))  returns 0x20000000 (0000ms, 0685ms total)
T1A78 001:023 JLINK_ClrBPEx(BPHandle = 0x0000000E)  returns 0x00 (0000ms, 0685ms total)
T1A78 001:023 JLINK_ReadReg(R0)  returns 0x00000001 (0000ms, 0685ms total)
T1A78 001:023 JLINK_WriteReg(R0, 0x0001C800)  returns 0x00 (0000ms, 0685ms total)
T1A78 001:023 JLINK_WriteReg(R1, 0x00000400)  returns 0x00 (0000ms, 0685ms total)
T1A78 001:023 JLINK_WriteReg(R2, 0x000000FF)  returns 0x00 (0000ms, 0685ms total)
T1A78 001:023 JLINK_WriteReg(R3, 0x00000000)  returns 0x00 (0000ms, 0685ms total)
T1A78 001:023 JLINK_WriteReg(R4, 0x00000000)  returns 0x00 (0000ms, 0685ms total)
T1A78 001:023 JLINK_WriteReg(R5, 0x00000000)  returns 0x00 (0000ms, 0685ms total)
T1A78 001:023 JLINK_WriteReg(R6, 0x00000000)  returns 0x00 (0000ms, 0685ms total)
T1A78 001:023 JLINK_WriteReg(R7, 0x00000000)  returns 0x00 (0000ms, 0685ms total)
T1A78 001:023 JLINK_WriteReg(R8, 0x00000000)  returns 0x00 (0000ms, 0685ms total)
T1A78 001:023 JLINK_WriteReg(R9, 0x20000474)  returns 0x00 (0000ms, 0685ms total)
T1A78 001:023 JLINK_WriteReg(R10, 0x00000000)  returns 0x00 (0000ms, 0685ms total)
T1A78 001:023 JLINK_WriteReg(R11, 0x00000000)  returns 0x00 (0000ms, 0685ms total)
T1A78 001:023 JLINK_WriteReg(R12, 0x00000000)  returns 0x00 (0000ms, 0685ms total)
T1A78 001:023 JLINK_WriteReg(R13 (SP), 0x20002000)  returns 0x00 (0000ms, 0685ms total)
T1A78 001:024 JLINK_WriteReg(R14, 0x20000001)  returns 0x00 (0000ms, 0686ms total)
T1A78 001:024 JLINK_WriteReg(R15 (PC), 0x20000104)  returns 0x00 (0000ms, 0686ms total)
T1A78 001:024 JLINK_WriteReg(XPSR, 0x01000000)  returns 0x00 (0000ms, 0686ms total)
T1A78 001:024 JLINK_WriteReg(MSP, 0x20002000)  returns 0x00 (0000ms, 0686ms total)
T1A78 001:024 JLINK_WriteReg(PSP, 0x20002000)  returns 0x00 (0000ms, 0686ms total)
T1A78 001:024 JLINK_WriteReg(CFBP, 0x00000000)  returns 0x00 (0000ms, 0686ms total)
T1A78 001:024 JLINK_SetBPEx(Addr = 0x20000000, Type = 0xFFFFFFF2)  returns 0x0000000F (0000ms, 0686ms total)
T1A78 001:024 JLINK_Go() -- CPU_ReadMem(4 bytes @ 0xE0001000) -- CPU_WriteMem(4 bytes @ 0xE0001000) (0004ms, 0690ms total)
T1A78 001:028 JLINK_IsHalted()  returns FALSE (0001ms, 0691ms total)
T1A78 001:042 JLINK_IsHalted()  returns FALSE (0001ms, 0691ms total)
T1A78 001:044 JLINK_IsHalted()  returns FALSE (0001ms, 0691ms total)
T1A78 001:046 JLINK_IsHalted()  returns FALSE (0001ms, 0691ms total)
T1A78 001:048 JLINK_IsHalted()  returns FALSE (0001ms, 0691ms total)
T1A78 001:050 JLINK_IsHalted() -- CPU_ReadMem(2 bytes @ 0x20000000)  returns TRUE (0007ms, 0697ms total)
T1A78 001:057 JLINK_ReadReg(R15 (PC))  returns 0x20000000 (0000ms, 0690ms total)
T1A78 001:057 JLINK_ClrBPEx(BPHandle = 0x0000000F)  returns 0x00 (0000ms, 0690ms total)
T1A78 001:057 JLINK_ReadReg(R0)  returns 0x00000000 (0000ms, 0690ms total)
T1A78 001:058 JLINK_WriteReg(R0, 0x0001CC00)  returns 0x00 (0000ms, 0690ms total)
T1A78 001:058 JLINK_WriteReg(R1, 0x00000400)  returns 0x00 (0000ms, 0690ms total)
T1A78 001:058 JLINK_WriteReg(R2, 0x000000FF)  returns 0x00 (0000ms, 0690ms total)
T1A78 001:058 JLINK_WriteReg(R3, 0x00000000)  returns 0x00 (0000ms, 0690ms total)
T1A78 001:058 JLINK_WriteReg(R4, 0x00000000)  returns 0x00 (0000ms, 0690ms total)
T1A78 001:058 JLINK_WriteReg(R5, 0x00000000)  returns 0x00 (0000ms, 0690ms total)
T1A78 001:058 JLINK_WriteReg(R6, 0x00000000)  returns 0x00 (0000ms, 0690ms total)
T1A78 001:058 JLINK_WriteReg(R7, 0x00000000)  returns 0x00 (0000ms, 0690ms total)
T1A78 001:058 JLINK_WriteReg(R8, 0x00000000)  returns 0x00 (0000ms, 0690ms total)
T1A78 001:058 JLINK_WriteReg(R9, 0x20000474)  returns 0x00 (0000ms, 0690ms total)
T1A78 001:058 JLINK_WriteReg(R10, 0x00000000)  returns 0x00 (0000ms, 0690ms total)
T1A78 001:058 JLINK_WriteReg(R11, 0x00000000)  returns 0x00 (0000ms, 0690ms total)
T1A78 001:058 JLINK_WriteReg(R12, 0x00000000)  returns 0x00 (0000ms, 0690ms total)
T1A78 001:058 JLINK_WriteReg(R13 (SP), 0x20002000)  returns 0x00 (0000ms, 0690ms total)
T1A78 001:058 JLINK_WriteReg(R14, 0x20000001)  returns 0x00 (0000ms, 0690ms total)
T1A78 001:058 JLINK_WriteReg(R15 (PC), 0x20000188)  returns 0x00 (0000ms, 0690ms total)
T1A78 001:058 JLINK_WriteReg(XPSR, 0x01000000)  returns 0x00 (0000ms, 0690ms total)
T1A78 001:058 JLINK_WriteReg(MSP, 0x20002000)  returns 0x00 (0000ms, 0690ms total)
T1A78 001:058 JLINK_WriteReg(PSP, 0x20002000)  returns 0x00 (0000ms, 0690ms total)
T1A78 001:058 JLINK_WriteReg(CFBP, 0x00000000)  returns 0x00 (0000ms, 0690ms total)
T1A78 001:058 JLINK_SetBPEx(Addr = 0x20000000, Type = 0xFFFFFFF2)  returns 0x00000010 (0000ms, 0690ms total)
T1A78 001:058 JLINK_Go() -- CPU_ReadMem(4 bytes @ 0xE0001000) -- CPU_WriteMem(4 bytes @ 0xE0001000) (0006ms, 0696ms total)
T1A78 001:064 JLINK_IsHalted() -- CPU_ReadMem(2 bytes @ 0x20000000)  returns TRUE (0007ms, 0703ms total)
T1A78 001:071 JLINK_ReadReg(R15 (PC))  returns 0x20000000 (0000ms, 0696ms total)
T1A78 001:071 JLINK_ClrBPEx(BPHandle = 0x00000010)  returns 0x00 (0000ms, 0696ms total)
T1A78 001:071 JLINK_ReadReg(R0)  returns 0x00000001 (0000ms, 0696ms total)
T1A78 001:072 JLINK_WriteReg(R0, 0x0001CC00)  returns 0x00 (0000ms, 0696ms total)
T1A78 001:072 JLINK_WriteReg(R1, 0x00000400)  returns 0x00 (0000ms, 0696ms total)
T1A78 001:072 JLINK_WriteReg(R2, 0x000000FF)  returns 0x00 (0000ms, 0696ms total)
T1A78 001:072 JLINK_WriteReg(R3, 0x00000000)  returns 0x00 (0000ms, 0696ms total)
T1A78 001:072 JLINK_WriteReg(R4, 0x00000000)  returns 0x00 (0000ms, 0696ms total)
T1A78 001:072 JLINK_WriteReg(R5, 0x00000000)  returns 0x00 (0000ms, 0696ms total)
T1A78 001:072 JLINK_WriteReg(R6, 0x00000000)  returns 0x00 (0000ms, 0696ms total)
T1A78 001:072 JLINK_WriteReg(R7, 0x00000000)  returns 0x00 (0000ms, 0696ms total)
T1A78 001:072 JLINK_WriteReg(R8, 0x00000000)  returns 0x00 (0000ms, 0696ms total)
T1A78 001:072 JLINK_WriteReg(R9, 0x20000474)  returns 0x00 (0000ms, 0696ms total)
T1A78 001:072 JLINK_WriteReg(R10, 0x00000000)  returns 0x00 (0000ms, 0696ms total)
T1A78 001:072 JLINK_WriteReg(R11, 0x00000000)  returns 0x00 (0000ms, 0696ms total)
T1A78 001:072 JLINK_WriteReg(R12, 0x00000000)  returns 0x00 (0000ms, 0696ms total)
T1A78 001:072 JLINK_WriteReg(R13 (SP), 0x20002000)  returns 0x00 (0000ms, 0696ms total)
T1A78 001:072 JLINK_WriteReg(R14, 0x20000001)  returns 0x00 (0000ms, 0696ms total)
T1A78 001:072 JLINK_WriteReg(R15 (PC), 0x20000104)  returns 0x00 (0000ms, 0696ms total)
T1A78 001:072 JLINK_WriteReg(XPSR, 0x01000000)  returns 0x00 (0000ms, 0696ms total)
T1A78 001:072 JLINK_WriteReg(MSP, 0x20002000)  returns 0x00 (0000ms, 0696ms total)
T1A78 001:072 JLINK_WriteReg(PSP, 0x20002000)  returns 0x00 (0000ms, 0696ms total)
T1A78 001:072 JLINK_WriteReg(CFBP, 0x00000000)  returns 0x00 (0000ms, 0696ms total)
T1A78 001:072 JLINK_SetBPEx(Addr = 0x20000000, Type = 0xFFFFFFF2)  returns 0x00000011 (0000ms, 0696ms total)
T1A78 001:072 JLINK_Go() -- CPU_ReadMem(4 bytes @ 0xE0001000) -- CPU_WriteMem(4 bytes @ 0xE0001000) (0004ms, 0700ms total)
T1A78 001:076 JLINK_IsHalted()  returns FALSE (0001ms, 0701ms total)
T1A78 001:078 JLINK_IsHalted()  returns FALSE (0001ms, 0701ms total)
T1A78 001:080 JLINK_IsHalted()  returns FALSE (0001ms, 0701ms total)
T1A78 001:083 JLINK_IsHalted()  returns FALSE (0000ms, 0700ms total)
T1A78 001:084 JLINK_IsHalted()  returns FALSE (0000ms, 0700ms total)
T1A78 001:085 JLINK_IsHalted()  returns FALSE (0000ms, 0700ms total)
T1A78 001:086 JLINK_IsHalted()  returns FALSE (0000ms, 0700ms total)
T1A78 001:087 JLINK_IsHalted()  returns FALSE (0001ms, 0701ms total)
T1A78 001:089 JLINK_IsHalted()  returns FALSE (0001ms, 0701ms total)
T1A78 001:091 JLINK_IsHalted()  returns FALSE (0001ms, 0701ms total)
